T37C4 2408:548.805   SEGGER J-Link V7.94e Log File
T37C4 2408:548.849   DLL Compiled: Jan 15 2024 15:13:38
T37C4 2408:548.857   Logging started @ 2024-12-12 10:45
T37C4 2408:548.865   Process: C:\Programas-Practicas\Simuladores\Keil\UV4\UV4.exe
T37C4 2408:548.873 - 8745.697ms
T37C4 2408:548.891 JLINK_SetWarnOutHandler(...)
T37C4 2408:548.899 - 0.008ms
T37C4 2408:548.909 JLINK_OpenEx(...)
T37C4 2408:553.436   Firmware: J-Link OB-nRF5340-NordicSemi compiled Oct 30 2023 12:13:06
T37C4 2408:554.698   Firmware: J-Link OB-nRF5340-NordicSemi compiled Oct 30 2023 12:13:06
T37C4 2408:585.996   Hardware: V1.00
T37C4 2408:586.063   S/N: 1050215573
T37C4 2408:586.076   OEM: SEGGER
T37C4 2408:586.089   Feature(s): RDI, FlashBP, FlashDL, JFlash, GDB
T37C4 2408:587.262   Bootloader: 2021 May 18
T37C4 2408:588.082   USB speed mode: Full speed (12 MBit/s)
T37C4 2408:588.629   TELNET listener socket opened on port 19021
T37C4 2408:595.560   WEBSRV WEBSRV_Init(): Starting webserver thread(s)
T37C4 2408:595.752   WEBSRV Webserver running on local port 19080
T37C4 2408:595.935   Looking for J-Link GUI Server exe at: C:\Programas-Practicas\Simuladores\Keil\ARM\Segger\JLinkGUIServer.exe
T37C4 2408:595.990   Looking for J-Link GUI Server exe at: \JLinkGUIServer.exe
T37C4 2408:898.068   Failed to connect to J-Link GUI Server.
T37C4 2408:898.136 - 349.224ms returns "O.K."
T37C4 2408:898.215 JLINK_GetEmuCaps()
T37C4 2408:898.246 - 0.030ms returns 0xB8EA5A33
T37C4 2408:898.291 JLINK_TIF_GetAvailable(...)
T37C4 2408:898.680 - 0.387ms
T37C4 2408:898.763 JLINK_SetErrorOutHandler(...)
T37C4 2408:898.792 - 0.029ms
T37C4 2408:899.500 JLINK_ExecCommand("ProjectFile = "D:\actualizada_p5_870795-Diaz_Montoya_872838-Hernandez_Aznar\nrf\keil\JLinkSettings.ini"", ...). 
T37C4 2408:905.366 - 5.866ms returns 0x00
T37C4 2408:905.457 JLINK_ExecCommand("Device = nRF52840_xxAA", ...). 
T37C4 2408:905.905   Device "NRF52840_XXAA" selected.
T37C4 2408:906.161 - 0.692ms returns 0x00
T37C4 2408:906.190 JLINK_ExecCommand("DisableConnectionTimeout", ...). 
T37C4 2408:906.203 - 0.002ms returns 0x01
T37C4 2408:906.233 JLINK_GetHardwareVersion()
T37C4 2408:906.254 - 0.020ms returns 10000
T37C4 2408:906.264 JLINK_GetDLLVersion()
T37C4 2408:906.271 - 0.006ms returns 79405
T37C4 2408:906.280 JLINK_GetOEMString(...)
T37C4 2408:906.291 JLINK_GetFirmwareString(...)
T37C4 2408:906.298 - 0.007ms
T37C4 2408:906.324 JLINK_GetDLLVersion()
T37C4 2408:906.332 - 0.007ms returns 79405
T37C4 2408:906.341 JLINK_GetCompileDateTime()
T37C4 2408:906.348 - 0.006ms
T37C4 2408:906.364 JLINK_GetFirmwareString(...)
T37C4 2408:906.371 - 0.007ms
T37C4 2408:906.385 JLINK_GetHardwareVersion()
T37C4 2408:906.392 - 0.007ms returns 10000
T37C4 2408:906.407 JLINK_GetSN()
T37C4 2408:906.414 - 0.007ms returns 1050215573
T37C4 2408:906.428 JLINK_GetOEMString(...)
T37C4 2408:906.450 JLINK_TIF_Select(JLINKARM_TIF_SWD)
T37C4 2408:907.345 - 0.893ms returns 0x00
T37C4 2408:907.381 JLINK_HasError()
T37C4 2408:907.394 JLINK_SetSpeed(5000)
T37C4 2408:907.585 - 0.190ms
T37C4 2408:907.620 JLINK_GetId()
T37C4 2408:908.054   InitTarget() start
T37C4 2408:908.074    J-Link Script File: Executing InitTarget()
T37C4 2408:911.253   InitTarget() end - Took 3.13ms
T37C4 2408:912.165   Found SW-DP with ID 0x2BA01477
T37C4 2408:914.688   DPIDR: 0x2BA01477
T37C4 2408:914.710   CoreSight SoC-400 or earlier
T37C4 2408:914.726   Scanning AP map to find all available APs
T37C4 2408:915.707   AP[2]: Stopped AP scan as end of AP map has been reached
T37C4 2408:915.729   AP[0]: AHB-AP (IDR: 0x24770011)
T37C4 2408:915.744   AP[1]: JTAG-AP (IDR: 0x02880000)
T37C4 2408:915.759   Iterating through AP map to find AHB-AP to use
T37C4 2408:916.695   AP[0]: Core found
T37C4 2408:916.714   AP[0]: AHB-AP ROM base: 0xE00FF000
T37C4 2408:917.216   CPUID register: 0x410FC241. Implementer code: 0x41 (ARM)
T37C4 2408:917.236   Found Cortex-M4 r0p1, Little endian.
T37C4 2408:917.579   -- Max. mem block: 0x0003D358
T37C4 2408:917.951   Cortex-M: The connected J-Link (S/N 1050215573) uses an old firmware module: V1 (current is 2)
T37C4 2408:918.018   CPU_ReadMem(4 bytes @ 0xE000EDF0)
T37C4 2408:918.343   CPU_WriteMem(4 bytes @ 0xE000EDF0)
T37C4 2408:918.660   CPU_ReadMem(4 bytes @ 0xE0002000)
T37C4 2408:918.970   FPUnit: 6 code (BP) slots and 2 literal slots
T37C4 2408:918.984   CPU_ReadMem(4 bytes @ 0xE000EDFC)
T37C4 2408:919.293   CPU_WriteMem(4 bytes @ 0xE000EDFC)
T37C4 2408:919.611   CPU_ReadMem(4 bytes @ 0xE0001000)
T37C4 2408:919.917   CPU_WriteMem(4 bytes @ 0xE0001000)
T37C4 2408:920.231   CPU_ReadMem(4 bytes @ 0xE000ED88)
T37C4 2408:920.553   CPU_WriteMem(4 bytes @ 0xE000ED88)
T37C4 2408:920.863   CPU_ReadMem(4 bytes @ 0xE000ED88)
T37C4 2408:921.172   CPU_WriteMem(4 bytes @ 0xE000ED88)
T37C4 2408:921.514   CoreSight components:
T37C4 2408:921.533   ROMTbl[0] @ E00FF000
T37C4 2408:921.544   CPU_ReadMem(64 bytes @ 0xE00FF000)
T37C4 2408:922.338   CPU_ReadMem(32 bytes @ 0xE000EFE0)
T37C4 2408:922.960   [0][0]: E000E000 CID B105E00D PID 000BB00C SCS-M7
T37C4 2408:922.974   CPU_ReadMem(32 bytes @ 0xE0001FE0)
T37C4 2408:923.557   [0][1]: E0001000 CID B105E00D PID 003BB002 DWT
T37C4 2408:923.572   CPU_ReadMem(32 bytes @ 0xE0002FE0)
T37C4 2408:924.159   [0][2]: E0002000 CID B105E00D PID 002BB003 FPB
T37C4 2408:924.174   CPU_ReadMem(32 bytes @ 0xE0000FE0)
T37C4 2408:924.756   [0][3]: E0000000 CID B105E00D PID 003BB001 ITM
T37C4 2408:924.771   CPU_ReadMem(32 bytes @ 0xE0040FE0)
T37C4 2408:925.340   [0][4]: E0040000 CID B105900D PID 000BB9A1 TPIU
T37C4 2408:925.384   CPU_ReadMem(32 bytes @ 0xE0041FE0)
T37C4 2408:926.025   [0][5]: E0041000 CID B105900D PID 000BB925 ETM
T37C4 2408:926.323 - 18.702ms returns 0x2BA01477
T37C4 2408:926.344 JLINK_GetDLLVersion()
T37C4 2408:926.352 - 0.007ms returns 79405
T37C4 2408:926.473 JLINK_CORE_GetFound()
T37C4 2408:926.486 - 0.012ms returns 0xE0000FF
T37C4 2408:926.499 JLINK_GetDebugInfo(0x100 = JLINKARM_ROM_TABLE_ADDR_INDEX)
T37C4 2408:926.507   Value=0xE00FF000
T37C4 2408:926.517 - 0.019ms returns 0
T37C4 2408:926.537 JLINK_GetDebugInfo(0x100 = JLINKARM_ROM_TABLE_ADDR_INDEX)
T37C4 2408:926.545   Value=0xE00FF000
T37C4 2408:926.557 - 0.019ms returns 0
T37C4 2408:926.567 JLINK_GetDebugInfo(0x101 = JLINKARM_DEBUG_INFO_ETM_ADDR_INDEX)
T37C4 2408:926.574   Value=0xE0041000
T37C4 2408:926.584 - 0.017ms returns 0
T37C4 2408:926.596 JLINK_ReadMemEx(0xE0041FD0, 0x20 Bytes, Flags = 0x02000004)
T37C4 2408:926.609   CPU_ReadMem(32 bytes @ 0xE0041FD0)
T37C4 2408:927.291   Data:  04 00 00 00 00 00 00 00 00 00 00 00 00 00 00 00 ...
T37C4 2408:927.320 - 0.724ms returns 32 (0x20)
T37C4 2408:927.333 JLINK_GetDebugInfo(0x102 = JLINKARM_DEBUG_INFO_MTB_ADDR_INDEX)
T37C4 2408:927.341   Value=0x00000000
T37C4 2408:927.351 - 0.018ms returns 0
T37C4 2408:927.361 JLINK_GetDebugInfo(0x103 = JLINKARM_DEBUG_INFO_TPIU_ADDR_INDEX)
T37C4 2408:927.368   Value=0xE0040000
T37C4 2408:927.378 - 0.017ms returns 0
T37C4 2408:927.387 JLINK_GetDebugInfo(0x104 = JLINKARM_DEBUG_INFO_ITM_ADDR_INDEX)
T37C4 2408:927.394   Value=0xE0000000
T37C4 2408:927.405 - 0.017ms returns 0
T37C4 2408:927.414 JLINK_GetDebugInfo(0x105 = JLINKARM_DEBUG_INFO_DWT_ADDR_INDEX)
T37C4 2408:927.421   Value=0xE0001000
T37C4 2408:927.431 - 0.017ms returns 0
T37C4 2408:927.441 JLINK_GetDebugInfo(0x106 = JLINKARM_DEBUG_INFO_FPB_ADDR_INDEX)
T37C4 2408:927.448   Value=0xE0002000
T37C4 2408:927.458 - 0.017ms returns 0
T37C4 2408:927.467 JLINK_GetDebugInfo(0x107 = JLINKARM_DEBUG_INFO_NVIC_ADDR_INDEX)
T37C4 2408:927.474   Value=0xE000E000
T37C4 2408:927.484 - 0.017ms returns 0
T37C4 2408:927.493 JLINK_GetDebugInfo(0x10C = JLINKARM_DEBUG_INFO_DBG_ADDR_INDEX)
T37C4 2408:927.500   Value=0xE000EDF0
T37C4 2408:927.511 - 0.017ms returns 0
T37C4 2408:927.520 JLINK_GetDebugInfo(0x01 = Unknown)
T37C4 2408:927.527   Value=0x00000001
T37C4 2408:927.537 - 0.017ms returns 0
T37C4 2408:927.549 JLINK_ReadMemU32(0xE000ED00, 0x1 Items)
T37C4 2408:927.559   CPU_ReadMem(4 bytes @ 0xE000ED00)
T37C4 2408:927.954   Data:  41 C2 0F 41
T37C4 2408:927.970   Debug reg: CPUID
T37C4 2408:927.980 - 0.431ms returns 1 (0x1)
T37C4 2408:927.995 JLINK_GetDebugInfo(0x10F = JLINKARM_DEBUG_INFO_HAS_CORTEX_M_SECURITY_EXT_INDEX)
T37C4 2408:928.004   Value=0x00000000
T37C4 2408:928.015 - 0.019ms returns 0
T37C4 2408:928.025 JLINK_HasError()
T37C4 2408:928.037 JLINK_SetResetType(JLINKARM_CM3_RESET_TYPE_NORMAL)
T37C4 2408:928.044 - 0.007ms returns JLINKARM_CM3_RESET_TYPE_NORMAL
T37C4 2408:928.054 JLINK_Reset()
T37C4 2408:928.066   CPU is running
T37C4 2408:928.077   CPU_WriteMem(4 bytes @ 0xE000EDF0)
T37C4 2408:928.491   CPU is running
T37C4 2408:928.508   CPU_WriteMem(4 bytes @ 0xE000EDFC)
T37C4 2408:928.928   Reset: Halt core after reset via DEMCR.VC_CORERESET.
T37C4 2408:929.389   Reset: Reset device via AIRCR.SYSRESETREQ.
T37C4 2408:929.405   CPU is running
T37C4 2408:929.417   CPU_WriteMem(4 bytes @ 0xE000ED0C)
T37C4 2408:982.517   CPU_ReadMem(4 bytes @ 0xE000EDF0)
T37C4 2408:983.194   CPU_ReadMem(4 bytes @ 0xE000EDF0)
T37C4 2408:987.528   CPU_WriteMem(4 bytes @ 0xE000EDFC)
T37C4 2408:994.117   CPU_ReadMem(4 bytes @ 0xE000EDF0)
T37C4 2408:998.309   CPU_WriteMem(4 bytes @ 0xE0002000)
T37C4 2408:998.764   CPU_ReadMem(4 bytes @ 0xE000EDFC)
T37C4 2408:999.171   CPU_ReadMem(4 bytes @ 0xE0001000)
T37C4 2408:999.567 - 71.512ms
T37C4 2408:999.719 JLINK_HasError()
T37C4 2408:999.740 JLINK_ReadReg(R15 (PC))
T37C4 2408:999.750 - 0.010ms returns 0x00000214
T37C4 2408:999.760 JLINK_ReadReg(XPSR)
T37C4 2408:999.768 - 0.007ms returns 0x01000000
T37C4 2408:999.779 JLINK_Halt()
T37C4 2408:999.787 - 0.007ms returns 0x00
T37C4 2408:999.796 JLINK_ReadMemU32(0xE000EDF0, 0x1 Items)
T37C4 2408:999.809   CPU_ReadMem(4 bytes @ 0xE000EDF0)
T37C4 2409:000.218   Data:  03 00 03 00
T37C4 2409:000.248   Debug reg: DHCSR
T37C4 2409:000.259 - 0.462ms returns 1 (0x1)
T37C4 2409:000.273 JLINK_WriteU32_64(0xE000EDF0, 0xA05F0003)
T37C4 2409:000.281   Debug reg: DHCSR
T37C4 2409:000.630   CPU_WriteMem(4 bytes @ 0xE000EDF0)
T37C4 2409:001.135 - 0.861ms returns 0 (0x00000000)
T37C4 2409:001.153 JLINK_WriteU32_64(0xE000EDFC, 0x01000000)
T37C4 2409:001.160   Debug reg: DEMCR
T37C4 2409:001.177   CPU_WriteMem(4 bytes @ 0xE000EDFC)
T37C4 2409:001.564 - 0.410ms returns 0 (0x00000000)
T37C4 2409:001.625 JLINK_GetHWStatus(...)
T37C4 2409:001.924 - 0.298ms returns 0
T37C4 2409:002.012 JLINK_GetNumBPUnits(Type = 0xFFFFFF00)
T37C4 2409:002.021 - 0.022ms returns 0x06
T37C4 2409:002.031 JLINK_GetNumBPUnits(Type = 0xF0)
T37C4 2409:002.040 - 0.009ms returns 0x2000
T37C4 2409:002.050 JLINK_GetNumWPUnits()
T37C4 2409:002.058 - 0.007ms returns 4
T37C4 2409:002.093 JLINK_GetSpeed()
T37C4 2409:002.101 - 0.007ms returns 2000
T37C4 2409:002.119 JLINK_ReadMemU32(0xE000E004, 0x1 Items)
T37C4 2409:002.131   CPU_ReadMem(4 bytes @ 0xE000E004)
T37C4 2409:002.553   Data:  01 00 00 00
T37C4 2409:002.570 - 0.450ms returns 1 (0x1)
T37C4 2409:002.582 JLINK_ReadMemU32(0xE000E004, 0x1 Items)
T37C4 2409:002.593   CPU_ReadMem(4 bytes @ 0xE000E004)
T37C4 2409:002.972   Data:  01 00 00 00
T37C4 2409:002.989 - 0.406ms returns 1 (0x1)
T37C4 2409:003.004 JLINK_WriteMemEx(0xE0001000, 0x0000001C Bytes, Flags = 0x02000004)
T37C4 2409:003.011   Data:  01 00 00 00 00 00 00 00 00 00 00 00 00 00 00 00 ...
T37C4 2409:003.029   CPU_WriteMem(28 bytes @ 0xE0001000)
T37C4 2409:003.572 - 0.568ms returns 0x1C
T37C4 2409:003.600 JLINK_HasError()
T37C4 2409:003.611 JLINK_ReadReg(R15 (PC))
T37C4 2409:003.621 - 0.009ms returns 0x00000214
T37C4 2409:003.631 JLINK_ReadReg(XPSR)
T37C4 2409:003.638 - 0.007ms returns 0x01000000
T37C4 2409:008.280 JLINK_ReadMemEx(0xE0001004, 0x4 Bytes, Flags = 0x02000000)
T37C4 2409:008.307   Data:  00 00 00 00
T37C4 2409:008.318   Debug reg: DWT_CYCCNT
T37C4 2409:008.329 - 0.049ms returns 4 (0x4)
T37C4 2409:083.700 JLINK_HasError()
T37C4 2409:083.730 JLINK_SetResetType(JLINKARM_CM3_RESET_TYPE_NORMAL)
T37C4 2409:083.739 - 0.008ms returns JLINKARM_CM3_RESET_TYPE_NORMAL
T37C4 2409:083.779 JLINK_Reset()
T37C4 2409:083.830   CPU_WriteMem(4 bytes @ 0xE000EDF0)
T37C4 2409:084.228   CPU_WriteMem(4 bytes @ 0xE000EDFC)
T37C4 2409:084.627   Reset: Halt core after reset via DEMCR.VC_CORERESET.
T37C4 2409:085.144   Reset: Reset device via AIRCR.SYSRESETREQ.
T37C4 2409:085.162   CPU_WriteMem(4 bytes @ 0xE000ED0C)
T37C4 2409:138.818   CPU_ReadMem(4 bytes @ 0xE000EDF0)
T37C4 2409:139.514   CPU_ReadMem(4 bytes @ 0xE000EDF0)
T37C4 2409:140.167   CPU_WriteMem(4 bytes @ 0xE000EDFC)
T37C4 2409:146.844   CPU_ReadMem(4 bytes @ 0xE000EDF0)
T37C4 2409:151.573   CPU_WriteMem(4 bytes @ 0xE0002000)
T37C4 2409:152.202   CPU_ReadMem(4 bytes @ 0xE000EDFC)
T37C4 2409:152.841   CPU_ReadMem(4 bytes @ 0xE0001000)
T37C4 2409:153.515 - 69.733ms
T37C4 2409:153.816 JLINK_HasError()
T37C4 2409:153.904 JLINK_ReadReg(R15 (PC))
T37C4 2409:153.969 - 0.063ms returns 0x00000214
T37C4 2409:154.010 JLINK_ReadReg(XPSR)
T37C4 2409:154.040 - 0.029ms returns 0x01000000
T37C4 2409:155.287 JLINK_ReadMemEx(0x00000200, 0x3C Bytes, Flags = 0x02000000)
T37C4 2409:155.361   CPU_ReadMem(64 bytes @ 0x00000200)
T37C4 2409:156.575    -- Updating C cache (64 bytes @ 0x00000200)
T37C4 2409:156.651    -- Read from C cache (60 bytes @ 0x00000200)
T37C4 2409:156.698   Data:  DF F8 0C D0 00 F0 7A F8 00 48 00 47 1D 10 00 00 ...
T37C4 2409:156.738 - 1.452ms returns 60 (0x3C)
T37C4 2410:212.468 JLINK_HasError()
T37C4 2410:212.499 JLINK_ReadReg(R0)
T37C4 2410:212.865 - 0.365ms returns 0x00000000
T37C4 2410:212.880 JLINK_ReadReg(R1)
T37C4 2410:212.888 - 0.007ms returns 0x00000000
T37C4 2410:212.897 JLINK_ReadReg(R2)
T37C4 2410:212.905 - 0.007ms returns 0x00000000
T37C4 2410:212.914 JLINK_ReadReg(R3)
T37C4 2410:212.921 - 0.007ms returns 0x00000000
T37C4 2410:212.930 JLINK_ReadReg(R4)
T37C4 2410:212.938 - 0.007ms returns 0x00000000
T37C4 2410:212.947 JLINK_ReadReg(R5)
T37C4 2410:212.954 - 0.007ms returns 0x00000000
T37C4 2410:212.963 JLINK_ReadReg(R6)
T37C4 2410:212.970 - 0.007ms returns 0x00000000
T37C4 2410:212.979 JLINK_ReadReg(R7)
T37C4 2410:212.986 - 0.007ms returns 0x00000000
T37C4 2410:212.996 JLINK_ReadReg(R8)
T37C4 2410:213.003 - 0.007ms returns 0x00000000
T37C4 2410:213.012 JLINK_ReadReg(R9)
T37C4 2410:213.019 - 0.006ms returns 0x00000000
T37C4 2410:213.028 JLINK_ReadReg(R10)
T37C4 2410:213.035 - 0.007ms returns 0x00000000
T37C4 2410:213.044 JLINK_ReadReg(R11)
T37C4 2410:213.051 - 0.006ms returns 0x00000000
T37C4 2410:213.060 JLINK_ReadReg(R12)
T37C4 2410:213.067 - 0.006ms returns 0x00000000
T37C4 2410:213.077 JLINK_ReadReg(R13 (SP))
T37C4 2410:213.084 - 0.007ms returns 0x20004690
T37C4 2410:213.093 JLINK_ReadReg(R14)
T37C4 2410:213.100 - 0.007ms returns 0xFFFFFFFF
T37C4 2410:213.109 JLINK_ReadReg(R15 (PC))
T37C4 2410:213.117 - 0.007ms returns 0x00000214
T37C4 2410:213.126 JLINK_ReadReg(XPSR)
T37C4 2410:213.133 - 0.007ms returns 0x01000000
T37C4 2410:213.142 JLINK_ReadReg(MSP)
T37C4 2410:213.149 - 0.006ms returns 0x20004690
T37C4 2410:213.158 JLINK_ReadReg(PSP)
T37C4 2410:213.165 - 0.007ms returns 0x00000000
T37C4 2410:213.176 JLINK_ReadReg(CFBP)
T37C4 2410:213.184 - 0.008ms returns 0x00000000
T37C4 2410:213.193 JLINK_ReadReg(FPSCR)
T37C4 2410:218.575 - 5.380ms returns 0x00000000
T37C4 2410:218.596 JLINK_ReadReg(FPS0)
T37C4 2410:218.606 - 0.009ms returns 0x00000000
T37C4 2410:218.615 JLINK_ReadReg(FPS1)
T37C4 2410:218.622 - 0.007ms returns 0x00000000
T37C4 2410:218.631 JLINK_ReadReg(FPS2)
T37C4 2410:218.639 - 0.007ms returns 0x00000000
T37C4 2410:218.648 JLINK_ReadReg(FPS3)
T37C4 2410:218.655 - 0.007ms returns 0x00000000
T37C4 2410:218.664 JLINK_ReadReg(FPS4)
T37C4 2410:218.671 - 0.007ms returns 0x00000000
T37C4 2410:218.680 JLINK_ReadReg(FPS5)
T37C4 2410:218.687 - 0.007ms returns 0x00000000
T37C4 2410:218.696 JLINK_ReadReg(FPS6)
T37C4 2410:218.704 - 0.007ms returns 0x00000000
T37C4 2410:218.713 JLINK_ReadReg(FPS7)
T37C4 2410:218.720 - 0.007ms returns 0x00000000
T37C4 2410:218.729 JLINK_ReadReg(FPS8)
T37C4 2410:218.737 - 0.007ms returns 0x00000000
T37C4 2410:218.746 JLINK_ReadReg(FPS9)
T37C4 2410:218.753 - 0.007ms returns 0x00000000
T37C4 2410:218.762 JLINK_ReadReg(FPS10)
T37C4 2410:218.769 - 0.007ms returns 0x00000000
T37C4 2410:218.827 JLINK_ReadReg(FPS11)
T37C4 2410:218.838 - 0.010ms returns 0x00000000
T37C4 2410:218.847 JLINK_ReadReg(FPS12)
T37C4 2410:218.855 - 0.007ms returns 0x00000000
T37C4 2410:218.864 JLINK_ReadReg(FPS13)
T37C4 2410:218.871 - 0.007ms returns 0x00000000
T37C4 2410:218.880 JLINK_ReadReg(FPS14)
T37C4 2410:218.888 - 0.007ms returns 0x00000000
T37C4 2410:218.897 JLINK_ReadReg(FPS15)
T37C4 2410:218.904 - 0.007ms returns 0x00000000
T37C4 2410:218.913 JLINK_ReadReg(FPS16)
T37C4 2410:218.933 - 0.020ms returns 0x00000000
T37C4 2410:218.943 JLINK_ReadReg(FPS17)
T37C4 2410:218.950 - 0.007ms returns 0x00000000
T37C4 2410:218.960 JLINK_ReadReg(FPS18)
T37C4 2410:218.967 - 0.007ms returns 0x00000000
T37C4 2410:218.977 JLINK_ReadReg(FPS19)
T37C4 2410:218.998 - 0.021ms returns 0x00000000
T37C4 2410:219.008 JLINK_ReadReg(FPS20)
T37C4 2410:219.028 - 0.020ms returns 0x00000000
T37C4 2410:219.039 JLINK_ReadReg(FPS21)
T37C4 2410:219.046 - 0.007ms returns 0x00000000
T37C4 2410:219.057 JLINK_ReadReg(FPS22)
T37C4 2410:219.066 - 0.008ms returns 0x00000000
T37C4 2410:219.076 JLINK_ReadReg(FPS23)
T37C4 2410:219.083 - 0.007ms returns 0x00000000
T37C4 2410:219.093 JLINK_ReadReg(FPS24)
T37C4 2410:219.100 - 0.007ms returns 0x00000000
T37C4 2410:219.110 JLINK_ReadReg(FPS25)
T37C4 2410:219.117 - 0.007ms returns 0x00000000
T37C4 2410:219.126 JLINK_ReadReg(FPS26)
T37C4 2410:219.147 - 0.020ms returns 0x00000000
T37C4 2410:219.156 JLINK_ReadReg(FPS27)
T37C4 2410:219.163 - 0.006ms returns 0x00000000
T37C4 2410:219.172 JLINK_ReadReg(FPS28)
T37C4 2410:219.179 - 0.007ms returns 0x00000000
T37C4 2410:219.188 JLINK_ReadReg(FPS29)
T37C4 2410:219.195 - 0.006ms returns 0x00000000
T37C4 2410:219.204 JLINK_ReadReg(FPS30)
T37C4 2410:219.212 - 0.006ms returns 0x00000000
T37C4 2410:219.221 JLINK_ReadReg(FPS31)
T37C4 2410:219.228 - 0.007ms returns 0x00000000
T37C4 2410:219.274 JLINK_ReadMemEx(0x20000660, 0x18 Bytes, Flags = 0x02000000)
T37C4 2410:219.290   CPU_ReadMem(64 bytes @ 0x20000640)
T37C4 2410:220.233    -- Updating C cache (64 bytes @ 0x20000640)
T37C4 2410:220.248    -- Read from C cache (24 bytes @ 0x20000660)
T37C4 2410:220.259   Data:  02 00 00 00 01 00 00 00 02 00 00 00 0B 00 00 00 ...
T37C4 2410:220.269 - 0.995ms returns 24 (0x18)
T22B0 2410:978.650 JLINK_ReadMemEx(0x00000214, 0x2 Bytes, Flags = 0x02000000)
T22B0 2410:978.680    -- Read from C cache (2 bytes @ 0x00000214)
T22B0 2410:978.691   Data:  06 48
T22B0 2410:978.702 - 0.053ms returns 2 (0x2)
T22B0 2410:978.713 JLINK_HasError()
T22B0 2410:978.729 JLINK_SetBPEx(Addr = 0x0000101C, Type = 0xFFFFFFF2)
T22B0 2410:978.739 - 0.010ms returns 0x00000001
T22B0 2410:978.749 JLINK_HasError()
T22B0 2410:978.758 JLINK_HasError()
T22B0 2410:978.769 JLINK_Go()
T22B0 2410:979.193   CPU_WriteMem(4 bytes @ 0xE0002000)
T22B0 2410:979.649   CPU_ReadMem(4 bytes @ 0xE0001000)
T22B0 2410:980.009   CPU_WriteMem(4 bytes @ 0xE0002008)
T22B0 2410:980.041   CPU_WriteMem(4 bytes @ 0xE000200C)
T22B0 2410:980.052   CPU_WriteMem(4 bytes @ 0xE0002010)
T22B0 2410:980.063   CPU_WriteMem(4 bytes @ 0xE0002014)
T22B0 2410:980.074   CPU_WriteMem(4 bytes @ 0xE0002018)
T22B0 2410:980.085   CPU_WriteMem(4 bytes @ 0xE000201C)
T22B0 2410:981.503   CPU_WriteMem(4 bytes @ 0xE0001004)
T22B0 2410:983.453   Memory map 'after startup completion point' is active
T22B0 2410:983.543 - 4.773ms
T22B0 2411:084.588 JLINK_HasError()
T22B0 2411:084.622 JLINK_IsHalted()
T22B0 2411:088.133 - 3.510ms returns TRUE
T22B0 2411:088.154 JLINK_HasError()
T22B0 2411:088.165 JLINK_Halt()
T22B0 2411:088.187 - 0.022ms returns 0x00
T22B0 2411:088.212 JLINK_IsHalted()
T22B0 2411:088.220 - 0.007ms returns TRUE
T22B0 2411:088.244 JLINK_IsHalted()
T22B0 2411:088.266 - 0.022ms returns TRUE
T22B0 2411:088.276 JLINK_IsHalted()
T22B0 2411:088.296 - 0.020ms returns TRUE
T22B0 2411:088.321 JLINK_HasError()
T22B0 2411:088.344 JLINK_ReadReg(R15 (PC))
T22B0 2411:088.369 - 0.024ms returns 0x0000101C
T22B0 2411:088.381 JLINK_ReadReg(XPSR)
T22B0 2411:088.402 - 0.020ms returns 0x61000000
T22B0 2411:088.433 JLINK_HasError()
T22B0 2411:088.565 JLINK_ClrBPEx(BPHandle = 0x00000001)
T22B0 2411:088.609 - 0.044ms returns 0x00
T22B0 2411:088.620 JLINK_HasError()
T22B0 2411:088.644 JLINK_HasError()
T22B0 2411:088.655 JLINK_ReadMemU32(0xE000ED30, 0x1 Items)
T22B0 2411:088.669   CPU_ReadMem(4 bytes @ 0xE000ED30)
T22B0 2411:089.012   Data:  02 00 00 00
T22B0 2411:089.039 - 0.384ms returns 1 (0x1)
T22B0 2411:089.051 JLINK_ReadMemU32(0xE0001028, 0x1 Items)
T22B0 2411:089.062   CPU_ReadMem(4 bytes @ 0xE0001028)
T22B0 2411:089.447   Data:  00 00 00 00
T22B0 2411:089.488   Debug reg: DWT_FUNC[0]
T22B0 2411:089.499 - 0.447ms returns 1 (0x1)
T22B0 2411:089.510 JLINK_ReadMemU32(0xE0001038, 0x1 Items)
T22B0 2411:089.522   CPU_ReadMem(4 bytes @ 0xE0001038)
T22B0 2411:089.887   Data:  00 02 00 00
T22B0 2411:089.914   Debug reg: DWT_FUNC[1]
T22B0 2411:089.924 - 0.413ms returns 1 (0x1)
T22B0 2411:089.935 JLINK_ReadMemU32(0xE0001048, 0x1 Items)
T22B0 2411:089.945   CPU_ReadMem(4 bytes @ 0xE0001048)
T22B0 2411:090.297   Data:  00 00 00 00
T22B0 2411:090.324   Debug reg: DWT_FUNC[2]
T22B0 2411:090.334 - 0.398ms returns 1 (0x1)
T22B0 2411:090.345 JLINK_ReadMemU32(0xE0001058, 0x1 Items)
T22B0 2411:090.355   CPU_ReadMem(4 bytes @ 0xE0001058)
T22B0 2411:090.721   Data:  00 00 00 00
T22B0 2411:090.748   Debug reg: DWT_FUNC[3]
T22B0 2411:090.758 - 0.412ms returns 1 (0x1)
T22B0 2411:090.797 JLINK_HasError()
T22B0 2411:090.808 JLINK_ReadReg(R0)
T22B0 2411:090.816 - 0.008ms returns 0x0000101D
T22B0 2411:090.826 JLINK_ReadReg(R1)
T22B0 2411:090.833 - 0.007ms returns 0x20004690
T22B0 2411:090.842 JLINK_ReadReg(R2)
T22B0 2411:090.849 - 0.007ms returns 0x00000000
T22B0 2411:090.859 JLINK_ReadReg(R3)
T22B0 2411:090.866 - 0.007ms returns 0x00000641
T22B0 2411:090.875 JLINK_ReadReg(R4)
T22B0 2411:090.882 - 0.007ms returns 0x00001970
T22B0 2411:090.891 JLINK_ReadReg(R5)
T22B0 2411:090.899 - 0.007ms returns 0x00001970
T22B0 2411:090.923 JLINK_ReadReg(R6)
T22B0 2411:090.944 - 0.020ms returns 0x00000000
T22B0 2411:090.967 JLINK_ReadReg(R7)
T22B0 2411:090.974 - 0.007ms returns 0x00000000
T22B0 2411:090.997 JLINK_ReadReg(R8)
T22B0 2411:091.005 - 0.007ms returns 0x00000000
T22B0 2411:091.014 JLINK_ReadReg(R9)
T22B0 2411:091.022 - 0.007ms returns 0x00000000
T22B0 2411:091.046 JLINK_ReadReg(R10)
T22B0 2411:091.054 - 0.007ms returns 0x00000000
T22B0 2411:091.077 JLINK_ReadReg(R11)
T22B0 2411:091.084 - 0.007ms returns 0x00000000
T22B0 2411:091.094 JLINK_ReadReg(R12)
T22B0 2411:091.101 - 0.007ms returns 0x4000C570
T22B0 2411:091.110 JLINK_ReadReg(R13 (SP))
T22B0 2411:091.118 - 0.007ms returns 0x20004690
T22B0 2411:091.128 JLINK_ReadReg(R14)
T22B0 2411:091.149 - 0.021ms returns 0x00000319
T22B0 2411:091.172 JLINK_ReadReg(R15 (PC))
T22B0 2411:091.180 - 0.007ms returns 0x0000101C
T22B0 2411:091.189 JLINK_ReadReg(XPSR)
T22B0 2411:091.197 - 0.007ms returns 0x61000000
T22B0 2411:091.207 JLINK_ReadReg(MSP)
T22B0 2411:091.215 - 0.007ms returns 0x20004690
T22B0 2411:091.224 JLINK_ReadReg(PSP)
T22B0 2411:091.232 - 0.007ms returns 0x00000000
T22B0 2411:091.242 JLINK_ReadReg(CFBP)
T22B0 2411:091.249 - 0.007ms returns 0x00000000
T22B0 2411:091.259 JLINK_ReadReg(FPSCR)
T22B0 2411:096.672 - 5.412ms returns 0x00000000
T22B0 2411:096.691 JLINK_ReadReg(FPS0)
T22B0 2411:096.700 - 0.009ms returns 0x00000000
T22B0 2411:096.709 JLINK_ReadReg(FPS1)
T22B0 2411:096.717 - 0.007ms returns 0x00000000
T22B0 2411:096.726 JLINK_ReadReg(FPS2)
T22B0 2411:096.733 - 0.007ms returns 0x00000000
T22B0 2411:096.742 JLINK_ReadReg(FPS3)
T22B0 2411:096.750 - 0.007ms returns 0x00000000
T22B0 2411:096.759 JLINK_ReadReg(FPS4)
T22B0 2411:096.766 - 0.007ms returns 0x00000000
T22B0 2411:096.776 JLINK_ReadReg(FPS5)
T22B0 2411:096.783 - 0.007ms returns 0x00000000
T22B0 2411:096.792 JLINK_ReadReg(FPS6)
T22B0 2411:096.799 - 0.007ms returns 0x00000000
T22B0 2411:096.808 JLINK_ReadReg(FPS7)
T22B0 2411:096.816 - 0.007ms returns 0x00000000
T22B0 2411:096.825 JLINK_ReadReg(FPS8)
T22B0 2411:096.832 - 0.007ms returns 0x00000000
T22B0 2411:096.845 JLINK_ReadReg(FPS9)
T22B0 2411:096.854 - 0.009ms returns 0x00000000
T22B0 2411:096.863 JLINK_ReadReg(FPS10)
T22B0 2411:096.871 - 0.007ms returns 0x00000000
T22B0 2411:096.880 JLINK_ReadReg(FPS11)
T22B0 2411:096.887 - 0.007ms returns 0x00000000
T22B0 2411:096.896 JLINK_ReadReg(FPS12)
T22B0 2411:096.903 - 0.007ms returns 0x00000000
T22B0 2411:096.913 JLINK_ReadReg(FPS13)
T22B0 2411:096.920 - 0.007ms returns 0x00000000
T22B0 2411:096.929 JLINK_ReadReg(FPS14)
T22B0 2411:096.936 - 0.007ms returns 0x00000000
T22B0 2411:096.945 JLINK_ReadReg(FPS15)
T22B0 2411:096.952 - 0.007ms returns 0x00000000
T22B0 2411:096.962 JLINK_ReadReg(FPS16)
T22B0 2411:096.969 - 0.007ms returns 0x00000000
T22B0 2411:096.978 JLINK_ReadReg(FPS17)
T22B0 2411:096.985 - 0.007ms returns 0x00000000
T22B0 2411:096.994 JLINK_ReadReg(FPS18)
T22B0 2411:097.001 - 0.007ms returns 0x00000000
T22B0 2411:097.010 JLINK_ReadReg(FPS19)
T22B0 2411:097.017 - 0.006ms returns 0x00000000
T22B0 2411:097.027 JLINK_ReadReg(FPS20)
T22B0 2411:097.034 - 0.007ms returns 0x00000000
T22B0 2411:097.043 JLINK_ReadReg(FPS21)
T22B0 2411:097.050 - 0.007ms returns 0x00000000
T22B0 2411:097.059 JLINK_ReadReg(FPS22)
T22B0 2411:097.066 - 0.007ms returns 0x00000000
T22B0 2411:097.075 JLINK_ReadReg(FPS23)
T22B0 2411:097.083 - 0.007ms returns 0x00000000
T22B0 2411:097.092 JLINK_ReadReg(FPS24)
T22B0 2411:097.099 - 0.007ms returns 0x00000000
T22B0 2411:097.108 JLINK_ReadReg(FPS25)
T22B0 2411:097.115 - 0.007ms returns 0x00000000
T22B0 2411:097.124 JLINK_ReadReg(FPS26)
T22B0 2411:097.132 - 0.007ms returns 0x00000000
T22B0 2411:097.141 JLINK_ReadReg(FPS27)
T22B0 2411:097.148 - 0.007ms returns 0x00000000
T22B0 2411:097.157 JLINK_ReadReg(FPS28)
T22B0 2411:097.164 - 0.007ms returns 0x00000000
T22B0 2411:097.173 JLINK_ReadReg(FPS29)
T22B0 2411:097.180 - 0.007ms returns 0x00000000
T22B0 2411:097.190 JLINK_ReadReg(FPS30)
T22B0 2411:097.197 - 0.007ms returns 0x00000000
T22B0 2411:097.206 JLINK_ReadReg(FPS31)
T22B0 2411:097.213 - 0.007ms returns 0x00000000
T37C4 2411:098.471 JLINK_ReadMemEx(0x20000660, 0x18 Bytes, Flags = 0x02000000)
T37C4 2411:098.493   CPU_ReadMem(64 bytes @ 0x20000640)
T37C4 2411:099.444    -- Updating C cache (64 bytes @ 0x20000640)
T37C4 2411:099.464    -- Read from C cache (24 bytes @ 0x20000660)
T37C4 2411:099.477   Data:  00 00 00 00 00 00 00 00 00 00 00 00 00 00 00 00 ...
T37C4 2411:099.488 - 1.017ms returns 24 (0x18)
T37C4 2411:103.040 JLINK_ReadMemEx(0x00000F1C, 0x3C Bytes, Flags = 0x02000000)
T37C4 2411:103.067   CPU_ReadMem(128 bytes @ 0x00000F00)
T37C4 2411:104.409    -- Updating C cache (128 bytes @ 0x00000F00)
T37C4 2411:104.424    -- Read from C cache (60 bytes @ 0x00000F1C)
T37C4 2411:104.451   Data:  00 21 08 60 70 47 00 00 04 D5 00 40 00 D0 00 40 ...
T37C4 2411:104.475 - 1.435ms returns 60 (0x3C)
T37C4 2411:104.534 JLINK_ReadMemEx(0x00000F58, 0x3C Bytes, Flags = 0x02000000)
T37C4 2411:104.553   CPU_ReadMem(64 bytes @ 0x00000F80)
T37C4 2411:105.346    -- Updating C cache (64 bytes @ 0x00000F80)
T37C4 2411:105.376    -- Read from C cache (60 bytes @ 0x00000F58)
T37C4 2411:105.388   Data:  0F 48 00 22 02 60 0F 48 01 21 41 60 0E 4B 1A 60 ...
T37C4 2411:105.398 - 0.864ms returns 60 (0x3C)
T37C4 2411:105.417 JLINK_ReadMemEx(0x00000F94, 0x3C Bytes, Flags = 0x02000000)
T37C4 2411:105.428   CPU_ReadMem(64 bytes @ 0x00000FC0)
T37C4 2411:106.240    -- Updating C cache (64 bytes @ 0x00000FC0)
T37C4 2411:106.256    -- Read from C cache (60 bytes @ 0x00000F94)
T37C4 2411:106.268   Data:  10 20 70 47 6C 00 00 20 00 80 00 40 04 85 00 40 ...
T37C4 2411:106.294 - 0.877ms returns 60 (0x3C)
T37C4 2411:106.325 JLINK_ReadMemEx(0x00000FD0, 0x30 Bytes, Flags = 0x02000000)
T37C4 2411:106.347    -- Read from C cache (48 bytes @ 0x00000FD0)
T37C4 2411:106.358   Data:  35 60 10 4D 2B 60 10 4B 40 1E 18 60 10 04 C1 F8 ...
T37C4 2411:106.369 - 0.044ms returns 48 (0x30)
T37C4 2411:106.379 JLINK_ReadMemEx(0x00001000, 0xC Bytes, Flags = 0x02000000)
T37C4 2411:106.388   CPU_ReadMem(64 bytes @ 0x00001000)
T37C4 2411:107.252    -- Updating C cache (64 bytes @ 0x00001000)
T37C4 2411:107.313    -- Read from C cache (12 bytes @ 0x00001000)
T37C4 2411:107.325   Data:  70 47 00 00 6C 00 00 20 00 90 00 40
T37C4 2411:107.335 - 0.956ms returns 12 (0xC)
T37C4 2411:107.368 JLINK_ReadMemEx(0x00001018, 0x3C Bytes, Flags = 0x02000000)
T37C4 2411:107.379   CPU_ReadMem(64 bytes @ 0x00001040)
T37C4 2411:108.191    -- Updating C cache (64 bytes @ 0x00001040)
T37C4 2411:108.206    -- Read from C cache (60 bytes @ 0x00001018)
T37C4 2411:108.218   Data:  40 95 00 40 10 B5 FF F7 3D FF FF F7 FF FC FF F7 ...
T37C4 2411:108.229 - 0.860ms returns 60 (0x3C)
T37C4 2449:515.567 JLINK_ReadMemEx(0x40006100, 0x1C Bytes, Flags = 0x02000004)
T37C4 2449:515.696   CPU_ReadMem(28 bytes @ 0x40006100)
T37C4 2449:516.641   Data:  00 00 00 00 00 00 00 00 00 00 00 00 00 00 00 00 ...
T37C4 2449:516.667 - 1.102ms returns 28 (0x1C)
T37C4 2449:516.797 JLINK_ReadMemEx(0x4000611C, 0x4 Bytes, Flags = 0x02000004)
T37C4 2449:516.819   CPU_ReadMem(4 bytes @ 0x4000611C)
T37C4 2449:517.385   Data:  00 00 00 00
T37C4 2449:517.402 - 0.605ms returns 4 (0x4)
T37C4 2449:517.416 JLINK_ReadMemEx(0x4000617C, 0x4 Bytes, Flags = 0x02000004)
T37C4 2449:517.428   CPU_ReadMem(4 bytes @ 0x4000617C)
T37C4 2449:517.958   Data:  00 00 00 00
T37C4 2449:517.991 - 0.574ms returns 4 (0x4)
T37C4 2449:518.004 JLINK_ReadMemEx(0x40006304, 0x4 Bytes, Flags = 0x02000004)
T37C4 2449:518.015   CPU_ReadMem(4 bytes @ 0x40006304)
T37C4 2449:518.596   Data:  00 00 00 00
T37C4 2449:518.613 - 0.608ms returns 4 (0x4)
T37C4 2449:518.627 JLINK_ReadMemEx(0x40006308, 0x4 Bytes, Flags = 0x02000004)
T37C4 2449:518.638   CPU_ReadMem(4 bytes @ 0x40006308)
T37C4 2449:519.162   Data:  00 00 00 00
T37C4 2449:519.178 - 0.551ms returns 4 (0x4)
T37C4 2449:519.192 JLINK_ReadMemEx(0x40006510, 0x1C Bytes, Flags = 0x02000004)
T37C4 2449:519.203   CPU_ReadMem(28 bytes @ 0x40006510)
T37C4 2449:519.928   Data:  00 00 00 00 00 00 00 00 00 00 00 00 00 00 00 00 ...
T37C4 2449:519.958 - 0.766ms returns 28 (0x1C)
T37C4 2449:519.971 JLINK_ReadMemEx(0x4000652C, 0x4 Bytes, Flags = 0x02000004)
T37C4 2449:519.981   CPU_ReadMem(4 bytes @ 0x4000652C)
T37C4 2449:520.511   Data:  00 00 00 00
T37C4 2449:520.527 - 0.555ms returns 4 (0x4)
T37C4 2474:639.667 JLINK_ReadMemEx(0x40002100, 0x8 Bytes, Flags = 0x02000004)
T37C4 2474:639.705   CPU_ReadMem(8 bytes @ 0x40002100)
T37C4 2474:640.164   Data:  00 00 00 00 00 00 00 00
T37C4 2474:640.179 - 0.512ms returns 8 (0x8)
T37C4 2474:640.193 JLINK_ReadMemEx(0x40002108, 0x4 Bytes, Flags = 0x02000004)
T37C4 2474:640.203   CPU_ReadMem(4 bytes @ 0x40002108)
T37C4 2474:640.597   Data:  00 00 00 00
T37C4 2474:640.638 - 0.445ms returns 4 (0x4)
T37C4 2474:640.660 JLINK_ReadMemEx(0x40002110, 0x4 Bytes, Flags = 0x02000004)
T37C4 2474:640.673   CPU_ReadMem(4 bytes @ 0x40002110)
T37C4 2474:641.039   Data:  00 00 00 00
T37C4 2474:641.070 - 0.410ms returns 4 (0x4)
T37C4 2474:641.083 JLINK_ReadMemEx(0x4000211C, 0x8 Bytes, Flags = 0x02000004)
T37C4 2474:641.093   CPU_ReadMem(8 bytes @ 0x4000211C)
T37C4 2474:641.610   Data:  00 00 00 00 00 00 00 00
T37C4 2474:641.640 - 0.557ms returns 8 (0x8)
T37C4 2474:641.653 JLINK_ReadMemEx(0x40002124, 0x4 Bytes, Flags = 0x02000004)
T37C4 2474:641.663   CPU_ReadMem(4 bytes @ 0x40002124)
T37C4 2474:642.127   Data:  00 00 00 00
T37C4 2474:642.161 - 0.507ms returns 4 (0x4)
T37C4 2474:642.174 JLINK_ReadMemEx(0x40002144, 0x4 Bytes, Flags = 0x02000004)
T37C4 2474:642.185   CPU_ReadMem(4 bytes @ 0x40002144)
T37C4 2474:642.616   Data:  00 00 00 00
T37C4 2474:642.632 - 0.458ms returns 4 (0x4)
T37C4 2474:642.648 JLINK_ReadMemEx(0x4000214C, 0x4 Bytes, Flags = 0x02000004)
T37C4 2474:642.658   CPU_ReadMem(4 bytes @ 0x4000214C)
T37C4 2474:643.130   Data:  00 00 00 00
T37C4 2474:643.164 - 0.515ms returns 4 (0x4)
T37C4 2474:643.177 JLINK_ReadMemEx(0x40002150, 0x4 Bytes, Flags = 0x02000004)
T37C4 2474:643.191   CPU_ReadMem(4 bytes @ 0x40002150)
T37C4 2474:643.739   Data:  00 00 00 00
T37C4 2474:643.772 - 0.595ms returns 4 (0x4)
T37C4 2474:643.786 JLINK_ReadMemEx(0x40002158, 0x4 Bytes, Flags = 0x02000004)
T37C4 2474:643.938   CPU_ReadMem(4 bytes @ 0x40002158)
T37C4 2474:644.480   Data:  00 00 00 00
T37C4 2474:644.512 - 0.726ms returns 4 (0x4)
T37C4 2474:644.525 JLINK_ReadMemEx(0x40002200, 0x4 Bytes, Flags = 0x02000004)
T37C4 2474:644.536   CPU_ReadMem(4 bytes @ 0x40002200)
T37C4 2474:645.064   Data:  00 00 00 00
T37C4 2474:645.094 - 0.568ms returns 4 (0x4)
T37C4 2474:645.106 JLINK_ReadMemEx(0x40002300, 0x8 Bytes, Flags = 0x02000004)
T37C4 2474:645.116   CPU_ReadMem(8 bytes @ 0x40002300)
T37C4 2474:645.671   Data:  00 00 00 00 00 00 00 00
T37C4 2474:645.702 - 0.595ms returns 8 (0x8)
T37C4 2474:645.715 JLINK_ReadMemEx(0x40002308, 0x4 Bytes, Flags = 0x02000004)
T37C4 2474:645.725   CPU_ReadMem(4 bytes @ 0x40002308)
T37C4 2474:646.239   Data:  00 00 00 00
T37C4 2474:646.253 - 0.538ms returns 4 (0x4)
T37C4 2474:646.266 JLINK_ReadMemEx(0x40002480, 0x4 Bytes, Flags = 0x02000004)
T37C4 2474:646.275   CPU_ReadMem(4 bytes @ 0x40002480)
T37C4 2474:646.685   Data:  00 00 00 00
T37C4 2474:646.716 - 0.450ms returns 4 (0x4)
T37C4 2474:646.729 JLINK_ReadMemEx(0x40002500, 0x4 Bytes, Flags = 0x02000004)
T37C4 2474:646.739   CPU_ReadMem(4 bytes @ 0x40002500)
T37C4 2474:647.259   Data:  00 00 00 00
T37C4 2474:647.289 - 0.560ms returns 4 (0x4)
T37C4 2474:647.301 JLINK_ReadMemEx(0x40002508, 0xC Bytes, Flags = 0x02000004)
T37C4 2474:647.311   CPU_ReadMem(12 bytes @ 0x40002508)
T37C4 2474:647.893   Data:  FF FF FF FF FF FF FF FF FF FF FF FF
T37C4 2474:647.923 - 0.621ms returns 12 (0xC)
T37C4 2474:647.935 JLINK_ReadMemEx(0x40002514, 0x4 Bytes, Flags = 0x02000004)
T37C4 2474:647.945   CPU_ReadMem(4 bytes @ 0x40002514)
T37C4 2474:648.451   Data:  FF FF FF FF
T37C4 2474:648.481 - 0.546ms returns 4 (0x4)
T37C4 2474:648.494 JLINK_ReadMemEx(0x40002524, 0x4 Bytes, Flags = 0x02000004)
T37C4 2474:648.503   CPU_ReadMem(4 bytes @ 0x40002524)
T37C4 2474:649.043   Data:  00 00 00 04
T37C4 2474:649.057 - 0.563ms returns 4 (0x4)
T37C4 2474:649.070 JLINK_ReadMemEx(0x40002534, 0x8 Bytes, Flags = 0x02000004)
T37C4 2474:649.080   CPU_ReadMem(8 bytes @ 0x40002534)
T37C4 2474:649.649   Data:  00 00 00 00 00 00 00 00
T37C4 2474:649.663 - 0.592ms returns 8 (0x8)
T37C4 2474:649.675 JLINK_ReadMemEx(0x4000253C, 0x4 Bytes, Flags = 0x02000004)
T37C4 2474:649.685   CPU_ReadMem(4 bytes @ 0x4000253C)
T37C4 2474:650.206   Data:  00 00 00 00
T37C4 2474:650.220 - 0.545ms returns 4 (0x4)
T37C4 2474:650.233 JLINK_ReadMemEx(0x40002544, 0x8 Bytes, Flags = 0x02000004)
T37C4 2474:650.243   CPU_ReadMem(8 bytes @ 0x40002544)
T37C4 2474:650.740   Data:  00 00 00 00 00 00 00 00
T37C4 2474:650.770 - 0.537ms returns 8 (0x8)
T37C4 2474:650.783 JLINK_ReadMemEx(0x4000254C, 0x4 Bytes, Flags = 0x02000004)
T37C4 2474:650.792   CPU_ReadMem(4 bytes @ 0x4000254C)
T37C4 2474:651.299   Data:  00 00 00 00
T37C4 2474:651.313 - 0.530ms returns 4 (0x4)
T37C4 2474:651.326 JLINK_ReadMemEx(0x4000256C, 0x4 Bytes, Flags = 0x02000004)
T37C4 2474:651.335   CPU_ReadMem(4 bytes @ 0x4000256C)
T37C4 2474:651.898   Data:  00 00 00 00
T37C4 2474:651.912 - 0.586ms returns 4 (0x4)
T37C4 2503:696.397 JLINK_ReadMemEx(0x00000C8A, 0x2 Bytes, Flags = 0x02000000)
T37C4 2503:696.468   CPU_ReadMem(64 bytes @ 0x00000C80)
T37C4 2503:697.770    -- Updating C cache (64 bytes @ 0x00000C80)
T37C4 2503:697.846    -- Read from C cache (2 bytes @ 0x00000C8A)
T37C4 2503:697.890   Data:  DF F8
T37C4 2503:697.937 - 1.541ms returns 2 (0x2)
T37C4 2503:698.035 JLINK_ReadMemEx(0x00000C8C, 0x3C Bytes, Flags = 0x02000000)
T37C4 2503:698.083   CPU_ReadMem(64 bytes @ 0x00000CC0)
T37C4 2503:699.335    -- Updating C cache (64 bytes @ 0x00000CC0)
T37C4 2503:699.411    -- Read from C cache (60 bytes @ 0x00000C8C)
T37C4 2503:699.457   Data:  40 C0 8C 00 04 F1 80 44 04 F5 C0 44 4C EA 00 2C ...
T37C4 2503:699.497 - 1.461ms returns 60 (0x3C)
T22B0 2515:158.310 JLINK_ReadMemEx(0x0000101C, 0x2 Bytes, Flags = 0x02000000)
T22B0 2515:158.380    -- Read from C cache (2 bytes @ 0x0000101C)
T22B0 2515:158.392   Data:  10 B5
T22B0 2515:158.404 - 0.094ms returns 2 (0x2)
T22B0 2515:158.422 JLINK_HasError()
T22B0 2515:158.435 JLINK_HasError()
T22B0 2515:158.445 JLINK_Go()
T22B0 2515:158.924   CPU_ReadMem(4 bytes @ 0xE0001000)
T22B0 2515:159.356   CPU_WriteMem(4 bytes @ 0xE0002008)
T22B0 2515:160.481 - 2.035ms
T22B0 2515:260.962 JLINK_HasError()
T22B0 2515:260.991 JLINK_IsHalted()
T22B0 2515:261.384 - 0.392ms returns FALSE
T22B0 2515:361.790 JLINK_HasError()
T22B0 2515:361.861 JLINK_IsHalted()
T22B0 2515:362.505 - 0.642ms returns FALSE
T22B0 2515:463.292 JLINK_HasError()
T22B0 2515:463.370 JLINK_IsHalted()
T22B0 2515:464.081 - 0.708ms returns FALSE
T22B0 2515:564.517 JLINK_HasError()
T22B0 2515:564.549 JLINK_IsHalted()
T22B0 2515:565.134 - 0.583ms returns FALSE
T22B0 2515:665.502 JLINK_HasError()
T22B0 2515:665.563 JLINK_IsHalted()
T22B0 2515:666.177 - 0.613ms returns FALSE
T22B0 2515:766.528 JLINK_HasError()
T22B0 2515:766.573 JLINK_HasError()
T22B0 2515:766.593 JLINK_ReadMemU32(0xE0001004, 0x1 Items)
T22B0 2515:766.625   CPU_ReadMem(4 bytes @ 0xE0001004)
T22B0 2515:767.091   Data:  84 81 51 02
T22B0 2515:767.123   Debug reg: DWT_CYCCNT
T22B0 2515:767.144 - 0.550ms returns 1 (0x1)
T37C4 2515:767.344 JLINK_ReadMemEx(0x20000660, 0x18 Bytes, Flags = 0x02000000)
T37C4 2515:767.378   CPU_ReadMem(24 bytes @ 0x20000660)
T37C4 2515:767.933   Data:  02 00 00 00 03 00 00 00 04 00 00 00 0B 00 00 00 ...
T37C4 2515:767.964 - 0.621ms returns 24 (0x18)
T37C4 2515:768.856 JLINK_ReadMemEx(0x40002100, 0x8 Bytes, Flags = 0x02000004)
T37C4 2515:768.887   CPU_ReadMem(8 bytes @ 0x40002100)
T37C4 2515:769.348   Data:  00 00 00 00 00 00 00 00
T37C4 2515:769.378 - 0.523ms returns 8 (0x8)
T37C4 2515:769.406 JLINK_ReadMemEx(0x40002108, 0x4 Bytes, Flags = 0x02000004)
T37C4 2515:769.428   CPU_ReadMem(4 bytes @ 0x40002108)
T37C4 2515:769.871   Data:  00 00 00 00
T37C4 2515:769.902 - 0.495ms returns 4 (0x4)
T37C4 2515:769.928 JLINK_ReadMemEx(0x40002110, 0x4 Bytes, Flags = 0x02000004)
T37C4 2515:769.948   CPU_ReadMem(4 bytes @ 0x40002110)
T37C4 2515:770.382   Data:  00 00 00 00
T37C4 2515:770.415 - 0.487ms returns 4 (0x4)
T37C4 2515:770.463 JLINK_ReadMemEx(0x4000211C, 0x8 Bytes, Flags = 0x02000004)
T37C4 2515:770.497   CPU_ReadMem(8 bytes @ 0x4000211C)
T37C4 2515:770.977   Data:  00 00 00 00 00 00 00 00
T37C4 2515:771.008 - 0.545ms returns 8 (0x8)
T37C4 2515:771.033 JLINK_ReadMemEx(0x40002124, 0x4 Bytes, Flags = 0x02000004)
T37C4 2515:771.055   CPU_ReadMem(4 bytes @ 0x40002124)
T37C4 2515:771.494   Data:  00 00 00 00
T37C4 2515:771.528 - 0.494ms returns 4 (0x4)
T37C4 2515:771.554 JLINK_ReadMemEx(0x40002144, 0x4 Bytes, Flags = 0x02000004)
T37C4 2515:771.575   CPU_ReadMem(4 bytes @ 0x40002144)
T37C4 2515:772.009   Data:  00 00 00 00
T37C4 2515:772.040 - 0.486ms returns 4 (0x4)
T37C4 2515:772.066 JLINK_ReadMemEx(0x4000214C, 0x4 Bytes, Flags = 0x02000004)
T37C4 2515:772.087   CPU_ReadMem(4 bytes @ 0x4000214C)
T37C4 2515:772.506   Data:  00 00 00 00
T37C4 2515:772.540 - 0.473ms returns 4 (0x4)
T37C4 2515:772.573 JLINK_ReadMemEx(0x40002150, 0x4 Bytes, Flags = 0x02000004)
T37C4 2515:772.598   CPU_ReadMem(4 bytes @ 0x40002150)
T37C4 2515:773.036   Data:  00 00 00 00
T37C4 2515:773.067 - 0.494ms returns 4 (0x4)
T37C4 2515:773.093 JLINK_ReadMemEx(0x40002158, 0x4 Bytes, Flags = 0x02000004)
T37C4 2515:773.115   CPU_ReadMem(4 bytes @ 0x40002158)
T37C4 2515:773.576   Data:  00 00 00 00
T37C4 2515:773.608 - 0.514ms returns 4 (0x4)
T37C4 2515:773.634 JLINK_ReadMemEx(0x40002200, 0x4 Bytes, Flags = 0x02000004)
T37C4 2515:773.654   CPU_ReadMem(4 bytes @ 0x40002200)
T37C4 2515:774.125   Data:  00 00 00 00
T37C4 2515:774.156 - 0.522ms returns 4 (0x4)
T37C4 2515:774.182 JLINK_ReadMemEx(0x40002300, 0x8 Bytes, Flags = 0x02000004)
T37C4 2515:774.203   CPU_ReadMem(8 bytes @ 0x40002300)
T37C4 2515:774.757   Data:  00 00 00 00 00 00 00 00
T37C4 2515:774.788 - 0.605ms returns 8 (0x8)
T37C4 2515:774.814 JLINK_ReadMemEx(0x40002308, 0x4 Bytes, Flags = 0x02000004)
T37C4 2515:774.835   CPU_ReadMem(4 bytes @ 0x40002308)
T37C4 2515:775.301   Data:  00 00 00 00
T37C4 2515:775.342 - 0.528ms returns 4 (0x4)
T37C4 2515:775.368 JLINK_ReadMemEx(0x40002480, 0x4 Bytes, Flags = 0x02000004)
T37C4 2515:775.389   CPU_ReadMem(4 bytes @ 0x40002480)
T37C4 2515:775.852   Data:  00 00 00 00
T37C4 2515:775.883 - 0.515ms returns 4 (0x4)
T37C4 2515:775.909 JLINK_ReadMemEx(0x40002500, 0x4 Bytes, Flags = 0x02000004)
T37C4 2515:775.930   CPU_ReadMem(4 bytes @ 0x40002500)
T37C4 2515:776.403   Data:  00 00 00 00
T37C4 2515:776.434 - 0.525ms returns 4 (0x4)
T37C4 2515:776.466 JLINK_ReadMemEx(0x40002508, 0xC Bytes, Flags = 0x02000004)
T37C4 2515:776.488   CPU_ReadMem(12 bytes @ 0x40002508)
T37C4 2515:777.023   Data:  FF FF FF FF FF FF FF FF FF FF FF FF
T37C4 2515:777.053 - 0.586ms returns 12 (0xC)
T37C4 2515:777.079 JLINK_ReadMemEx(0x40002514, 0x4 Bytes, Flags = 0x02000004)
T37C4 2515:777.100   CPU_ReadMem(4 bytes @ 0x40002514)
T37C4 2515:777.528   Data:  FF FF FF FF
T37C4 2515:777.560 - 0.481ms returns 4 (0x4)
T37C4 2515:777.586 JLINK_ReadMemEx(0x40002524, 0x4 Bytes, Flags = 0x02000004)
T37C4 2515:777.608   CPU_ReadMem(4 bytes @ 0x40002524)
T37C4 2515:778.065   Data:  00 00 00 04
T37C4 2515:778.096 - 0.510ms returns 4 (0x4)
T37C4 2515:778.122 JLINK_ReadMemEx(0x40002534, 0x8 Bytes, Flags = 0x02000004)
T37C4 2515:778.142   CPU_ReadMem(8 bytes @ 0x40002534)
T37C4 2515:778.591   Data:  00 00 00 00 00 00 00 00
T37C4 2515:778.619 - 0.497ms returns 8 (0x8)
T37C4 2515:778.643 JLINK_ReadMemEx(0x4000253C, 0x4 Bytes, Flags = 0x02000004)
T37C4 2515:778.662   CPU_ReadMem(4 bytes @ 0x4000253C)
T37C4 2515:779.064   Data:  00 00 00 00
T37C4 2515:779.091 - 0.448ms returns 4 (0x4)
T37C4 2515:779.117 JLINK_ReadMemEx(0x40002544, 0x8 Bytes, Flags = 0x02000004)
T37C4 2515:779.140   CPU_ReadMem(8 bytes @ 0x40002544)
T37C4 2515:779.605   Data:  00 00 00 00 00 00 00 00
T37C4 2515:779.635 - 0.531ms returns 8 (0x8)
T37C4 2515:779.649 JLINK_ReadMemEx(0x4000254C, 0x4 Bytes, Flags = 0x02000004)
T37C4 2515:779.661   CPU_ReadMem(4 bytes @ 0x4000254C)
T37C4 2515:780.052   Data:  00 00 00 00
T37C4 2515:780.068 - 0.418ms returns 4 (0x4)
T37C4 2515:780.081 JLINK_ReadMemEx(0x4000256C, 0x4 Bytes, Flags = 0x02000004)
T37C4 2515:780.103   CPU_ReadMem(4 bytes @ 0x4000256C)
T37C4 2515:780.499   Data:  00 00 00 00
T37C4 2515:780.513 - 0.432ms returns 4 (0x4)
T37C4 2515:780.884 JLINK_ReadMemEx(0x40006100, 0x1C Bytes, Flags = 0x02000004)
T37C4 2515:780.897   CPU_ReadMem(28 bytes @ 0x40006100)
T37C4 2515:781.464   Data:  00 00 00 00 00 00 00 00 00 00 00 00 00 00 00 00 ...
T37C4 2515:781.492 - 0.607ms returns 28 (0x1C)
T37C4 2515:781.505 JLINK_ReadMemEx(0x4000611C, 0x4 Bytes, Flags = 0x02000004)
T37C4 2515:781.515   CPU_ReadMem(4 bytes @ 0x4000611C)
T37C4 2515:781.937   Data:  00 00 00 00
T37C4 2515:781.953 - 0.447ms returns 4 (0x4)
T37C4 2515:781.967 JLINK_ReadMemEx(0x4000617C, 0x4 Bytes, Flags = 0x02000004)
T37C4 2515:781.991   CPU_ReadMem(4 bytes @ 0x4000617C)
T37C4 2515:782.380   Data:  01 00 00 00
T37C4 2515:782.409 - 0.442ms returns 4 (0x4)
T37C4 2515:782.438 JLINK_ReadMemEx(0x40006304, 0x4 Bytes, Flags = 0x02000004)
T37C4 2515:782.475   CPU_ReadMem(4 bytes @ 0x40006304)
T37C4 2515:782.940   Data:  0F 00 00 00
T37C4 2515:782.969 - 0.531ms returns 4 (0x4)
T37C4 2515:782.985 JLINK_ReadMemEx(0x40006308, 0x4 Bytes, Flags = 0x02000004)
T37C4 2515:783.011   CPU_ReadMem(4 bytes @ 0x40006308)
T37C4 2515:783.462   Data:  0F 00 00 00
T37C4 2515:783.478 - 0.492ms returns 4 (0x4)
T37C4 2515:783.493 JLINK_ReadMemEx(0x40006510, 0x1C Bytes, Flags = 0x02000004)
T37C4 2515:783.519   CPU_ReadMem(28 bytes @ 0x40006510)
T37C4 2515:784.123   Data:  01 0B 02 00 01 0C 02 00 01 18 02 00 01 19 02 00 ...
T37C4 2515:784.139 - 0.645ms returns 28 (0x1C)
T37C4 2515:784.154 JLINK_ReadMemEx(0x4000652C, 0x4 Bytes, Flags = 0x02000004)
T37C4 2515:784.180   CPU_ReadMem(4 bytes @ 0x4000652C)
T37C4 2515:784.596   Data:  00 00 00 00
T37C4 2515:784.612 - 0.457ms returns 4 (0x4)
T22B0 2515:828.584 JLINK_IsHalted()
T22B0 2515:829.092 - 0.506ms returns FALSE
T22B0 2515:929.502 JLINK_HasError()
T22B0 2515:929.573 JLINK_IsHalted()
T22B0 2515:930.193 - 0.618ms returns FALSE
T22B0 2516:030.750 JLINK_HasError()
T22B0 2516:030.819 JLINK_IsHalted()
T22B0 2516:031.412 - 0.591ms returns FALSE
T22B0 2516:131.773 JLINK_HasError()
T22B0 2516:131.819 JLINK_IsHalted()
T22B0 2516:132.393 - 0.573ms returns FALSE
T22B0 2516:232.834 JLINK_HasError()
T22B0 2516:232.910 JLINK_IsHalted()
T22B0 2516:233.575 - 0.662ms returns FALSE
T22B0 2516:333.925 JLINK_HasError()
T22B0 2516:333.990 JLINK_HasError()
T22B0 2516:334.001 JLINK_ReadMemU32(0xE0001004, 0x1 Items)
T22B0 2516:334.031   Data:  84 81 51 02
T22B0 2516:334.042   Debug reg: DWT_CYCCNT
T22B0 2516:334.053 - 0.052ms returns 1 (0x1)
T37C4 2516:334.216 JLINK_ReadMemEx(0x20000660, 0x18 Bytes, Flags = 0x02000000)
T37C4 2516:334.238   CPU_ReadMem(24 bytes @ 0x20000660)
T37C4 2516:334.911   Data:  02 00 00 00 03 00 00 00 04 00 00 00 0B 00 00 00 ...
T37C4 2516:334.933 - 0.716ms returns 24 (0x18)
T37C4 2516:335.396 JLINK_ReadMemEx(0x40002100, 0x8 Bytes, Flags = 0x02000004)
T37C4 2516:335.412   CPU_ReadMem(8 bytes @ 0x40002100)
T37C4 2516:336.025   Data:  00 00 00 00 00 00 00 00
T37C4 2516:336.049 - 0.653ms returns 8 (0x8)
T37C4 2516:336.067 JLINK_ReadMemEx(0x40002108, 0x4 Bytes, Flags = 0x02000004)
T37C4 2516:336.080   CPU_ReadMem(4 bytes @ 0x40002108)
T37C4 2516:336.614   Data:  00 00 00 00
T37C4 2516:336.638 - 0.571ms returns 4 (0x4)
T37C4 2516:336.655 JLINK_ReadMemEx(0x40002110, 0x4 Bytes, Flags = 0x02000004)
T37C4 2516:336.668   CPU_ReadMem(4 bytes @ 0x40002110)
T37C4 2516:337.125   Data:  00 00 00 00
T37C4 2516:337.162 - 0.507ms returns 4 (0x4)
T37C4 2516:337.179 JLINK_ReadMemEx(0x4000211C, 0x8 Bytes, Flags = 0x02000004)
T37C4 2516:337.192   CPU_ReadMem(8 bytes @ 0x4000211C)
T37C4 2516:337.886   Data:  00 00 00 00 00 00 00 00
T37C4 2516:337.938 - 0.759ms returns 8 (0x8)
T37C4 2516:337.968 JLINK_ReadMemEx(0x40002124, 0x4 Bytes, Flags = 0x02000004)
T37C4 2516:337.979   CPU_ReadMem(4 bytes @ 0x40002124)
T37C4 2516:338.505   Data:  00 00 00 00
T37C4 2516:338.521 - 0.553ms returns 4 (0x4)
T37C4 2516:338.535 JLINK_ReadMemEx(0x40002144, 0x4 Bytes, Flags = 0x02000004)
T37C4 2516:338.546   CPU_ReadMem(4 bytes @ 0x40002144)
T37C4 2516:339.086   Data:  00 00 00 00
T37C4 2516:339.102 - 0.567ms returns 4 (0x4)
T37C4 2516:339.116 JLINK_ReadMemEx(0x4000214C, 0x4 Bytes, Flags = 0x02000004)
T37C4 2516:339.126   CPU_ReadMem(4 bytes @ 0x4000214C)
T37C4 2516:339.669   Data:  00 00 00 00
T37C4 2516:339.689 - 0.573ms returns 4 (0x4)
T37C4 2516:339.705 JLINK_ReadMemEx(0x40002150, 0x4 Bytes, Flags = 0x02000004)
T37C4 2516:339.718   CPU_ReadMem(4 bytes @ 0x40002150)
T37C4 2516:340.230   Data:  00 00 00 00
T37C4 2516:340.248 - 0.543ms returns 4 (0x4)
T37C4 2516:340.263 JLINK_ReadMemEx(0x40002158, 0x4 Bytes, Flags = 0x02000004)
T37C4 2516:340.274   CPU_ReadMem(4 bytes @ 0x40002158)
T37C4 2516:340.845   Data:  00 00 00 00
T37C4 2516:340.863 - 0.600ms returns 4 (0x4)
T37C4 2516:340.877 JLINK_ReadMemEx(0x40002200, 0x4 Bytes, Flags = 0x02000004)
T37C4 2516:340.888   CPU_ReadMem(4 bytes @ 0x40002200)
T37C4 2516:341.420   Data:  00 00 00 00
T37C4 2516:341.437 - 0.559ms returns 4 (0x4)
T37C4 2516:341.451 JLINK_ReadMemEx(0x40002300, 0x8 Bytes, Flags = 0x02000004)
T37C4 2516:341.463   CPU_ReadMem(8 bytes @ 0x40002300)
T37C4 2516:342.002   Data:  00 00 00 00 00 00 00 00
T37C4 2516:342.019 - 0.568ms returns 8 (0x8)
T37C4 2516:342.034 JLINK_ReadMemEx(0x40002308, 0x4 Bytes, Flags = 0x02000004)
T37C4 2516:342.045   CPU_ReadMem(4 bytes @ 0x40002308)
T37C4 2516:342.579   Data:  00 00 00 00
T37C4 2516:342.597 - 0.563ms returns 4 (0x4)
T37C4 2516:342.611 JLINK_ReadMemEx(0x40002480, 0x4 Bytes, Flags = 0x02000004)
T37C4 2516:342.623   CPU_ReadMem(4 bytes @ 0x40002480)
T37C4 2516:343.129   Data:  00 00 00 00
T37C4 2516:343.148 - 0.536ms returns 4 (0x4)
T37C4 2516:343.165 JLINK_ReadMemEx(0x40002500, 0x4 Bytes, Flags = 0x02000004)
T37C4 2516:343.177   CPU_ReadMem(4 bytes @ 0x40002500)
T37C4 2516:343.644   Data:  00 00 00 00
T37C4 2516:343.676 - 0.511ms returns 4 (0x4)
T37C4 2516:343.696 JLINK_ReadMemEx(0x40002508, 0xC Bytes, Flags = 0x02000004)
T37C4 2516:343.711   CPU_ReadMem(12 bytes @ 0x40002508)
T37C4 2516:344.245   Data:  FF FF FF FF FF FF FF FF FF FF FF FF
T37C4 2516:344.263 - 0.566ms returns 12 (0xC)
T37C4 2516:344.280 JLINK_ReadMemEx(0x40002514, 0x4 Bytes, Flags = 0x02000004)
T37C4 2516:344.291   CPU_ReadMem(4 bytes @ 0x40002514)
T37C4 2516:344.734   Data:  FF FF FF FF
T37C4 2516:344.767 - 0.486ms returns 4 (0x4)
T37C4 2516:344.784 JLINK_ReadMemEx(0x40002524, 0x4 Bytes, Flags = 0x02000004)
T37C4 2516:344.795   CPU_ReadMem(4 bytes @ 0x40002524)
T37C4 2516:345.332   Data:  00 00 00 04
T37C4 2516:345.350 - 0.565ms returns 4 (0x4)
T37C4 2516:345.366 JLINK_ReadMemEx(0x40002534, 0x8 Bytes, Flags = 0x02000004)
T37C4 2516:345.378   CPU_ReadMem(8 bytes @ 0x40002534)
